
T05DC 001:360 SEGGER J-Link V4.15n (beta) Log File (0002ms, 1358ms total)
T05DC 001:360 DLL Compiled: Jun 18 2010 19:55:09 (0002ms, 1358ms total)
T05DC 001:360 Logging started @ 2017-07-09 14:21 (0002ms, 1358ms total)
T05DC 001:362 JLINK_SetWarnOutHandler(...) (0000ms, 1360ms total)
T05DC 001:362 JLINK_OpenEx(...)
Firmware: J-Link ARM V8 compiled May 20 2010 17:07:46
Hardware: V8.00
S/N: 20100214
Feature(s): RDI,FlashDL,FlashBP,JFlash,GDBFull  returns O.K. (0617ms, 1360ms total)
T05DC 001:979 JLINK_SetErrorOutHandler(...) (0000ms, 1977ms total)
T05DC 001:979 JLINK_ExecCommand("ProjectFile = "F:\EmbeddedDevelopment\Project\01_test_stlib\usr\JLinkSettings.ini"", ...)  returns 0x00 (0001ms, 1977ms total)
T05DC 002:009 JLINK_ExecCommand("DisableConnectionTimeout", ...)  returns 0x00 (0000ms, 1978ms total)
T05DC 002:009 JLINK_TIF_Select(JLINKARM_TIF_JTAG)  returns 0x00 (0000ms, 1978ms total)
T05DC 002:009 JLINK_SetSpeed(2000) (0000ms, 1978ms total)
T05DC 002:009 JLINK_GetHardwareVersion()  returns 0x13880 (0000ms, 1978ms total)
T05DC 002:009 JLINK_GetDLLVersion()  returns 41514 (0000ms, 1978ms total)
T05DC 002:009 JLINK_GetFirmwareString(...) (0000ms, 1978ms total)
T05DC 002:074 JLINK_GetDLLVersion()  returns 41514 (0000ms, 1978ms total)
T05DC 002:074 JLINK_GetCompileDateTime() (0000ms, 1978ms total)
T05DC 002:082 JLINK_GetFirmwareString(...) (0000ms, 1978ms total)
T05DC 002:086 JLINK_GetHardwareVersion()  returns 0x13880 (0000ms, 1978ms total)
T05DC 002:121 JLINK_Reset() >0x2F8 JTAG>TotalIRLen = 9, IRPrint = 0x0011 >0x30 JTAG> >0x210 JTAG> >0x118 JTAG> >0xD8 JTAG> >0x198 JTAG> >0x38 JTAG> >0x118 JTAG> >0xD8 JTAG> >0x2F0 JTAG> >0x2F0 JTAG> >0x198 JTAG> >0x198 JTAG>Found Cortex-M3 r1p1, Little endian. >0xD8 JTAG> >0x240 JTAG> >0x198 JTAG> >0x198 JTAG>TPIU fitted. >0x198 JTAG>ETM fitted. >0x198 JTAG>  FPUnit: 6 code (BP) slots and 2 literal slots >0x198 JTAG> >0x250 JTAG> >0x240 JTAG> >0x280 JTAG> >0x198 JTAG> >0x198 JTAG> >0x240 JTAG>
 >0x240 JTAG> >0x198 JTAG> >0x198 JTAG> >0x17A8 JTAG> >0x240 JTAG> >0x198 JTAG> >0x17A8 JTAG> >0x198 JTAG> -- CPU_WriteMem(4 bytes @ 0xE000EDFC) -- CPU_WriteMem(4 bytes @ 0xE0001028) -- CPU_WriteMem(4 bytes @ 0xE0001038) -- CPU_WriteMem(4 bytes @ 0xE0001048) -- CPU_WriteMem(4 bytes @ 0xE0001058) (0096ms, 1978ms total)
T05DC 002:217 JLINK_GetIdData(...) ScanLen=9 NumDevices=2 aId[0]=0x3BA00477 aIrRead[0]=0 aScanLen[0]=0 aScanRead[0]=0 (0000ms, 2074ms total)
T05DC 002:217 JLINK_JTAG_GetDeviceID(DeviceIndex = 0)  returns 0x3BA00477 (0000ms, 2074ms total)
T05DC 002:217 JLINK_JTAG_GetDeviceInfo(DeviceIndex = 0)  returns 0x00 (0000ms, 2074ms total)
T05DC 002:217 JLINK_JTAG_GetDeviceID(DeviceIndex = 1)  returns 0x6430041 (0000ms, 2074ms total)
T05DC 002:217 JLINK_JTAG_GetDeviceInfo(DeviceIndex = 1)  returns 0x01 (0000ms, 2074ms total)
T05DC 002:217 JLINK_GetDebugInfo(0x100) -- Value=0xE00FF003  returns 0x00 (0000ms, 2074ms total)
T05DC 002:226 JLINK_ReadMem (0xE00FF000, 0x0018 Bytes, ...) -- CPU_ReadMem(24 bytes @ 0xE00FF000) -- Data:  03 F0 F0 FF 03 20 F0 FF 03 30 F0 FF 03 10 F0 FF ...  returns 0x00 (0001ms, 2074ms total)
T05DC 002:227 JLINK_ReadMemU32(0xE000ED00, 0x0001 Items, ...) -- CPU_ReadMem(4 bytes @ 0xE000ED00) -- Data:  31 C2 1F 41  returns 0x01 (0001ms, 2075ms total)
T05DC 002:230 JLINK_Halt()  returns 0x00 (0000ms, 2076ms total)
T05DC 002:230 JLINK_IsHalted()  returns TRUE (0000ms, 2076ms total)
T05DC 002:230 JLINK_ReadMemU32(0xE000EDF0, 0x0001 Items, ...) -- CPU_ReadMem(4 bytes @ 0xE000EDF0) -- Data:  03 00 03 00  returns 0x01 (0001ms, 2076ms total)
T05DC 002:231 JLINK_WriteU32(0xE000EDF0, 0xA05F0003) -- CPU_WriteMem(4 bytes @ 0xE000EDF0)  returns 0x00 (0000ms, 2077ms total)
T05DC 002:231 JLINK_WriteU32(0xE000EDFC, 0x01000000) -- CPU_WriteMem(4 bytes @ 0xE000EDFC)  returns 0x00 (0001ms, 2077ms total)
T05DC 002:232 JLINK_ReadMemU32(0xE0002000, 0x0001 Items, ...) -- CPU_ReadMem(4 bytes @ 0xE0002000) -- Data:  60 02 00 00  returns 0x01 (0001ms, 2078ms total)
T05DC 002:233 JLINK_ReadMemU32(0xE0001000, 0x0001 Items, ...) -- CPU_ReadMem(4 bytes @ 0xE0001000) -- Data:  01 00 00 40  returns 0x01 (0001ms, 2079ms total)
T05DC 002:256 JLINK_ExecCommand("Device = STM32F103RG", ...)
                JLINK_ExecCommand("map ram 0x20000000 - 0x20017FFF", ...)  returns 0x00 (0000ms, 0000ms total)
                JLINK_AddMirrorAreaEx(Addr = 0x00000000, Size = 0x00000000) (0000ms, 0000ms total)
                returns 0x00 (0002ms, 2080ms total)
T05DC 002:258 JLINK_GetHWStatus(...)  returns 0x00 (0001ms, 2082ms total)
T05DC 002:272 JLINK_GetNumBPUnits(Type = 0xFFFFFF00) >0x2F8 JTAG>TotalIRLen = 9, IRPrint = 0x0011 >0x30 JTAG> >0x210 JTAG> >0x118 JTAG> >0xD8 JTAG> >0x198 JTAG> >0x38 JTAG> >0x118 JTAG> >0xD8 JTAG> >0x2F0 JTAG> >0x2F0 JTAG> >0x198 JTAG> >0x198 JTAG>Found Cortex-M3 r1p1, Little endian. >0xD8 JTAG> >0x240 JTAG> >0x198 JTAG> >0x198 JTAG>TPIU fitted. >0x198 JTAG>ETM fitted. >0x198 JTAG>  FPUnit: 6 code (BP) slots and 2 literal slots >0x198 JTAG>  returns 0x06 (0051ms, 2083ms total)
T05DC 002:323 JLINK_GetNumBPUnits(Type = 0xF0)  returns 0x800 (0000ms, 2134ms total)
T05DC 002:323 JLINK_GetNumWPUnits()  returns 0x04 (0000ms, 2134ms total)
T05DC 002:348 JLINK_GetSpeed()  returns 0x7D0 (0000ms, 2134ms total)
T05DC 002:355 JLINK_ReadMemU32(0xE000E004, 0x0001 Items, ...) -- CPU_ReadMem(4 bytes @ 0xE000E004) -- Data:  01 00 00 00  returns 0x01 (0000ms, 2134ms total)
T05DC 002:355 JLINK_WriteMem(0xE0001000, 0x001C Bytes, ...) -- Data:  01 00 00 00 00 00 00 00 00 00 00 00 00 00 00 00 ... -- CPU_WriteMem(28 bytes @ 0xE0001000)  returns 0x1C (0001ms, 2134ms total)
T05DC 002:356 JLINK_ReadMem (0xE0001000, 0x001C Bytes, ...) -- CPU_ReadMem(28 bytes @ 0xE0001000) -- Data:  01 00 00 40 00 00 00 00 00 00 00 00 00 00 00 00 ...  returns 0x00 (0001ms, 2135ms total)
T05DC 002:357 JLINK_Halt()  returns 0x00 (0000ms, 2136ms total)
T05DC 002:357 JLINK_IsHalted()  returns TRUE (0000ms, 2136ms total)
T05DC 002:367 JLINK_WriteMem(0x20000000, 0x0260 Bytes, ...) -- Data:  00 BE 0A E0 0D 78 2D 06 68 40 08 24 40 00 00 D3 ... -- CPU_WriteMem(608 bytes @ 0x20000000)  returns 0x260 (0004ms, 2136ms total)
T05DC 002:371 JLINK_WriteReg(R0, 0x08000000)  returns 0x00 (0000ms, 2140ms total)
T05DC 002:371 JLINK_WriteReg(R1, 0x007A1200)  returns 0x00 (0000ms, 2140ms total)
T05DC 002:371 JLINK_WriteReg(R2, 0x00000001)  returns 0x00 (0000ms, 2140ms total)
T05DC 002:371 JLINK_WriteReg(R3, 0x00000000)  returns 0x00 (0000ms, 2140ms total)
T05DC 002:371 JLINK_WriteReg(R4, 0x00000000)  returns 0x00 (0000ms, 2140ms total)
T05DC 002:371 JLINK_WriteReg(R5, 0x00000000)  returns 0x00 (0000ms, 2140ms total)
T05DC 002:371 JLINK_WriteReg(R6, 0x00000000)  returns 0x00 (0000ms, 2140ms total)
T05DC 002:371 JLINK_WriteReg(R7, 0x00000000)  returns 0x00 (0000ms, 2140ms total)
T05DC 002:371 JLINK_WriteReg(R8, 0x00000000)  returns 0x00 (0000ms, 2140ms total)
T05DC 002:371 JLINK_WriteReg(R9, 0x20000258)  returns 0x00 (0000ms, 2140ms total)
T05DC 002:371 JLINK_WriteReg(R10, 0x00000000)  returns 0x00 (0000ms, 2140ms total)
T05DC 002:371 JLINK_WriteReg(R11, 0x00000000)  returns 0x00 (0000ms, 2140ms total)
T05DC 002:371 JLINK_WriteReg(R12, 0x00000000)  returns 0x00 (0000ms, 2140ms total)
T05DC 002:371 JLINK_WriteReg(R13, 0x20000800)  returns 0x00 (0000ms, 2140ms total)
T05DC 002:371 JLINK_WriteReg(R14, 0x20000001)  returns 0x00 (0000ms, 2140ms total)
T05DC 002:371 JLINK_WriteReg(R15, 0x20000038)  returns 0x00 (0001ms, 2140ms total)
T05DC 002:372 JLINK_WriteReg(XPSR, 0x01000000)  returns 0x00 (0000ms, 2141ms total)
T05DC 002:372 JLINK_WriteReg(MSP, 0x20000800)  returns 0x00 (0000ms, 2141ms total)
T05DC 002:372 JLINK_WriteReg(PSP, 0x20000800)  returns 0x00 (0000ms, 2141ms total)
T05DC 002:372 JLINK_WriteReg(CFBP, 0x00000000)  returns 0x00 (0000ms, 2141ms total)
T05DC 002:372 JLINK_SetBPEx(Addr = 0x20000000, Type = 0xFFFFFFF2) -- CPU_ReadMem(2 bytes @ 0x20000000)  returns 0x00000001 (0000ms, 2141ms total)
T05DC 002:372 JLINK_Go() -- CPU_WriteMem(2 bytes @ 0x20000000) -- CPU_WriteMem(4 bytes @ 0xE0002008) -- CPU_WriteMem(4 bytes @ 0xE000200C) -- CPU_WriteMem(4 bytes @ 0xE0002010) -- CPU_WriteMem(4 bytes @ 0xE0002014) -- CPU_WriteMem(4 bytes @ 0xE0002018) -- CPU_WriteMem(4 bytes @ 0xE000201C) >0x320 JTAG> >0x218 JTAG> >0x218 JTAG> >0x218 JTAG> >0x218 JTAG> >0x218 JTAG> >0x218 JTAG> >0x218 JTAG> >0x218 JTAG> >0x218 JTAG> >0x240 JTAG> >0x240 JTAG> (0016ms, 2141ms total)
T05DC 002:388 JLINK_IsHalted() >0x198 JTAG> >0x17A8 JTAG> -- CPU_ReadMem(2 bytes @ 0x20000000)  returns TRUE (0007ms, 2157ms total)
T05DC 002:395 JLINK_ReadReg(R15)  returns 0x20000000 (0000ms, 2157ms total)
T05DC 002:395 JLINK_ClrBPEx(BPHandle = 0x00000001)  returns 0x00 (0000ms, 2157ms total)
T05DC 002:395 JLINK_ReadReg(R0)  returns 0x00000000 (0000ms, 2157ms total)
T05DC 002:396 JLINK_WriteReg(R0, 0x08000000)  returns 0x00 (0000ms, 2157ms total)
T05DC 002:396 JLINK_WriteReg(R1, 0x007A1200)  returns 0x00 (0000ms, 2157ms total)
T05DC 002:396 JLINK_WriteReg(R2, 0x00000001)  returns 0x00 (0000ms, 2157ms total)
T05DC 002:396 JLINK_WriteReg(R3, 0x00000000)  returns 0x00 (0000ms, 2157ms total)
T05DC 002:396 JLINK_WriteReg(R4, 0x00000000)  returns 0x00 (0000ms, 2157ms total)
T05DC 002:396 JLINK_WriteReg(R5, 0x00000000)  returns 0x00 (0000ms, 2157ms total)
T05DC 002:396 JLINK_WriteReg(R6, 0x00000000)  returns 0x00 (0000ms, 2157ms total)
T05DC 002:396 JLINK_WriteReg(R7, 0x00000000)  returns 0x00 (0000ms, 2157ms total)
T05DC 002:396 JLINK_WriteReg(R8, 0x00000000)  returns 0x00 (0000ms, 2157ms total)
T05DC 002:396 JLINK_WriteReg(R9, 0x20000258)  returns 0x00 (0000ms, 2157ms total)
T05DC 002:396 JLINK_WriteReg(R10, 0x00000000)  returns 0x00 (0000ms, 2157ms total)
T05DC 002:396 JLINK_WriteReg(R11, 0x00000000)  returns 0x00 (0000ms, 2157ms total)
T05DC 002:396 JLINK_WriteReg(R12, 0x00000000)  returns 0x00 (0000ms, 2157ms total)
T05DC 002:396 JLINK_WriteReg(R13, 0x20000800)  returns 0x00 (0000ms, 2157ms total)
T05DC 002:396 JLINK_WriteReg(R14, 0x20000001)  returns 0x00 (0000ms, 2157ms total)
T05DC 002:396 JLINK_WriteReg(R15, 0x20000098)  returns 0x00 (0000ms, 2157ms total)
T05DC 002:396 JLINK_WriteReg(XPSR, 0x01000000)  returns 0x00 (0000ms, 2157ms total)
T05DC 002:396 JLINK_WriteReg(MSP, 0x20000800)  returns 0x00 (0000ms, 2157ms total)
T05DC 002:396 JLINK_WriteReg(PSP, 0x20000800)  returns 0x00 (0000ms, 2157ms total)
T05DC 002:396 JLINK_WriteReg(CFBP, 0x00000000)  returns 0x00 (0000ms, 2157ms total)
T05DC 002:396 JLINK_SetBPEx(Addr = 0x20000000, Type = 0xFFFFFFF2)  returns 0x00000002 (0000ms, 2157ms total)
T05DC 002:396 JLINK_Go() -- CPU_WriteMem(4 bytes @ 0xE0002008) -- CPU_WriteMem(4 bytes @ 0xE000200C) -- CPU_WriteMem(4 bytes @ 0xE0002010) -- CPU_WriteMem(4 bytes @ 0xE0002014) -- CPU_WriteMem(4 bytes @ 0xE0002018) -- CPU_WriteMem(4 bytes @ 0xE000201C) >0x310 JTAG> >0x218 JTAG> >0x218 JTAG> >0x218 JTAG> >0x240 JTAG> >0x240 JTAG> (0009ms, 2157ms total)
T05DC 002:405 JLINK_IsHalted() >0x198 JTAG>  returns FALSE (0001ms, 2166ms total)
T05DC 002:456 JLINK_IsHalted() >0x198 JTAG> >0x17A8 JTAG> -- CPU_ReadMem(2 bytes @ 0x20000000)  returns TRUE (0007ms, 2166ms total)
T05DC 002:463 JLINK_ReadReg(R15)  returns 0x20000000 (0000ms, 2166ms total)
T05DC 002:463 JLINK_ClrBPEx(BPHandle = 0x00000002)  returns 0x00 (0000ms, 2166ms total)
T05DC 002:463 JLINK_ReadReg(R0)  returns 0x00000000 (0000ms, 2166ms total)
T05DC 002:518 JLINK_WriteReg(R0, 0x00000001)  returns 0x00 (0000ms, 2166ms total)
T05DC 002:518 JLINK_WriteReg(R1, 0x007A1200)  returns 0x00 (0000ms, 2166ms total)
T05DC 002:518 JLINK_WriteReg(R2, 0x00000001)  returns 0x00 (0000ms, 2166ms total)
T05DC 002:518 JLINK_WriteReg(R3, 0x00000000)  returns 0x00 (0000ms, 2166ms total)
T05DC 002:518 JLINK_WriteReg(R4, 0x00000000)  returns 0x00 (0000ms, 2166ms total)
T05DC 002:518 JLINK_WriteReg(R5, 0x00000000)  returns 0x00 (0000ms, 2166ms total)
T05DC 002:518 JLINK_WriteReg(R6, 0x00000000)  returns 0x00 (0000ms, 2166ms total)
T05DC 002:518 JLINK_WriteReg(R7, 0x00000000)  returns 0x00 (0000ms, 2166ms total)
T05DC 002:518 JLINK_WriteReg(R8, 0x00000000)  returns 0x00 (0000ms, 2166ms total)
T05DC 002:518 JLINK_WriteReg(R9, 0x20000258)  returns 0x00 (0000ms, 2166ms total)
T05DC 002:518 JLINK_WriteReg(R10, 0x00000000)  returns 0x00 (0000ms, 2166ms total)
T05DC 002:518 JLINK_WriteReg(R11, 0x00000000)  returns 0x00 (0000ms, 2166ms total)
T05DC 002:518 JLINK_WriteReg(R12, 0x00000000)  returns 0x00 (0000ms, 2166ms total)
T05DC 002:518 JLINK_WriteReg(R13, 0x20000800)  returns 0x00 (0000ms, 2166ms total)
T05DC 002:518 JLINK_WriteReg(R14, 0x20000001)  returns 0x00 (0000ms, 2166ms total)
T05DC 002:518 JLINK_WriteReg(R15, 0x2000007C)  returns 0x00 (0000ms, 2166ms total)
T05DC 002:518 JLINK_WriteReg(XPSR, 0x01000000)  returns 0x00 (0000ms, 2166ms total)
T05DC 002:518 JLINK_WriteReg(MSP, 0x20000800)  returns 0x00 (0000ms, 2166ms total)
T05DC 002:518 JLINK_WriteReg(PSP, 0x20000800)  returns 0x00 (0000ms, 2166ms total)
T05DC 002:518 JLINK_WriteReg(CFBP, 0x00000000)  returns 0x00 (0000ms, 2166ms total)
T05DC 002:518 JLINK_SetBPEx(Addr = 0x20000000, Type = 0xFFFFFFF2)  returns 0x00000003 (0000ms, 2166ms total)
T05DC 002:518 JLINK_Go() -- CPU_WriteMem(4 bytes @ 0xE0002008) -- CPU_WriteMem(4 bytes @ 0xE000200C) -- CPU_WriteMem(4 bytes @ 0xE0002010) -- CPU_WriteMem(4 bytes @ 0xE0002014) -- CPU_WriteMem(4 bytes @ 0xE0002018) -- CPU_WriteMem(4 bytes @ 0xE000201C) >0x310 JTAG> >0x218 JTAG> >0x218 JTAG> >0x218 JTAG> >0x240 JTAG> >0x240 JTAG> (0010ms, 2166ms total)
T05DC 002:528 JLINK_IsHalted() >0x198 JTAG> >0x17A8 JTAG> -- CPU_ReadMem(2 bytes @ 0x20000000)  returns TRUE (0007ms, 2176ms total)
T05DC 002:535 JLINK_ReadReg(R15)  returns 0x20000000 (0000ms, 2176ms total)
T05DC 002:535 JLINK_ClrBPEx(BPHandle = 0x00000003)  returns 0x00 (0000ms, 2176ms total)
T05DC 002:535 JLINK_ReadReg(R0)  returns 0x00000000 (0000ms, 2176ms total)
T05DC 002:546 JLINK_WriteMem(0x20000000, 0x0260 Bytes, ...) -- Data:  00 BE 0A E0 0D 78 2D 06 68 40 08 24 40 00 00 D3 ... -- CPU_WriteMem(608 bytes @ 0x20000000)  returns 0x260 (0005ms, 2176ms total)
T05DC 002:551 JLINK_WriteReg(R0, 0x08000000)  returns 0x00 (0000ms, 2181ms total)
T05DC 002:551 JLINK_WriteReg(R1, 0x007A1200)  returns 0x00 (0000ms, 2181ms total)
T05DC 002:551 JLINK_WriteReg(R2, 0x00000002)  returns 0x00 (0000ms, 2181ms total)
T05DC 002:551 JLINK_WriteReg(R3, 0x00000000)  returns 0x00 (0000ms, 2181ms total)
T05DC 002:551 JLINK_WriteReg(R4, 0x00000000)  returns 0x00 (0000ms, 2181ms total)
T05DC 002:551 JLINK_WriteReg(R5, 0x00000000)  returns 0x00 (0000ms, 2181ms total)
T05DC 002:551 JLINK_WriteReg(R6, 0x00000000)  returns 0x00 (0000ms, 2181ms total)
T05DC 002:551 JLINK_WriteReg(R7, 0x00000000)  returns 0x00 (0000ms, 2181ms total)
T05DC 002:551 JLINK_WriteReg(R8, 0x00000000)  returns 0x00 (0000ms, 2181ms total)
T05DC 002:551 JLINK_WriteReg(R9, 0x20000258)  returns 0x00 (0000ms, 2181ms total)
T05DC 002:551 JLINK_WriteReg(R10, 0x00000000)  returns 0x00 (0000ms, 2181ms total)
T05DC 002:551 JLINK_WriteReg(R11, 0x00000000)  returns 0x00 (0000ms, 2181ms total)
T05DC 002:551 JLINK_WriteReg(R12, 0x00000000)  returns 0x00 (0000ms, 2181ms total)
T05DC 002:551 JLINK_WriteReg(R13, 0x20000800)  returns 0x00 (0000ms, 2181ms total)
T05DC 002:551 JLINK_WriteReg(R14, 0x20000001)  returns 0x00 (0000ms, 2181ms total)
T05DC 002:551 JLINK_WriteReg(R15, 0x20000038)  returns 0x00 (0000ms, 2181ms total)
T05DC 002:551 JLINK_WriteReg(XPSR, 0x01000000)  returns 0x00 (0000ms, 2181ms total)
T05DC 002:551 JLINK_WriteReg(MSP, 0x20000800)  returns 0x00 (0000ms, 2181ms total)
T05DC 002:551 JLINK_WriteReg(PSP, 0x20000800)  returns 0x00 (0000ms, 2181ms total)
T05DC 002:551 JLINK_WriteReg(CFBP, 0x00000000)  returns 0x00 (0000ms, 2181ms total)
T05DC 002:551 JLINK_SetBPEx(Addr = 0x20000000, Type = 0xFFFFFFF2) -- CPU_ReadMem(2 bytes @ 0x20000000)  returns 0x00000004 (0001ms, 2181ms total)
T05DC 002:552 JLINK_Go() -- CPU_WriteMem(2 bytes @ 0x20000000) -- CPU_WriteMem(4 bytes @ 0xE0002008) -- CPU_WriteMem(4 bytes @ 0xE000200C) -- CPU_WriteMem(4 bytes @ 0xE0002010) -- CPU_WriteMem(4 bytes @ 0xE0002014) -- CPU_WriteMem(4 bytes @ 0xE0002018) -- CPU_WriteMem(4 bytes @ 0xE000201C) >0x310 JTAG> >0x218 JTAG> >0x218 JTAG> >0x218 JTAG> >0x218 JTAG> >0x240 JTAG> >0x240 JTAG> (0012ms, 2182ms total)
T05DC 002:564 JLINK_IsHalted() >0x198 JTAG> >0x17A8 JTAG> -- CPU_ReadMem(2 bytes @ 0x20000000)  returns TRUE (0007ms, 2194ms total)
T05DC 002:571 JLINK_ReadReg(R15)  returns 0x20000000 (0000ms, 2194ms total)
T05DC 002:571 JLINK_ClrBPEx(BPHandle = 0x00000004)  returns 0x00 (0000ms, 2194ms total)
T05DC 002:571 JLINK_ReadReg(R0)  returns 0x00000000 (0000ms, 2194ms total)
T05DC 002:572 JLINK_WriteMem(0x20000260, 0x0400 Bytes, ...) -- Data:  28 04 00 20 81 02 00 08 65 02 00 08 67 02 00 08 ... -- CPU_WriteMem(1024 bytes @ 0x20000260)  returns 0x400 (0007ms, 2194ms total)
T05DC 002:579 JLINK_WriteReg(R0, 0x08000000)  returns 0x00 (0000ms, 2201ms total)
T05DC 002:579 JLINK_WriteReg(R1, 0x00000400)  returns 0x00 (0000ms, 2201ms total)
T05DC 002:579 JLINK_WriteReg(R2, 0x20000260)  returns 0x00 (0000ms, 2201ms total)
T05DC 002:579 JLINK_WriteReg(R3, 0x00000000)  returns 0x00 (0000ms, 2201ms total)
T05DC 002:579 JLINK_WriteReg(R4, 0x00000000)  returns 0x00 (0000ms, 2201ms total)
T05DC 002:579 JLINK_WriteReg(R5, 0x00000000)  returns 0x00 (0000ms, 2201ms total)
T05DC 002:579 JLINK_WriteReg(R6, 0x00000000)  returns 0x00 (0000ms, 2201ms total)
T05DC 002:579 JLINK_WriteReg(R7, 0x00000000)  returns 0x00 (0000ms, 2201ms total)
T05DC 002:579 JLINK_WriteReg(R8, 0x00000000)  returns 0x00 (0000ms, 2201ms total)
T05DC 002:579 JLINK_WriteReg(R9, 0x20000258)  returns 0x00 (0000ms, 2201ms total)
T05DC 002:579 JLINK_WriteReg(R10, 0x00000000)  returns 0x00 (0000ms, 2201ms total)
T05DC 002:579 JLINK_WriteReg(R11, 0x00000000)  returns 0x00 (0000ms, 2201ms total)
T05DC 002:579 JLINK_WriteReg(R12, 0x00000000)  returns 0x00 (0000ms, 2201ms total)
T05DC 002:579 JLINK_WriteReg(R13, 0x20000800)  returns 0x00 (0000ms, 2201ms total)
T05DC 002:579 JLINK_WriteReg(R14, 0x20000001)  returns 0x00 (0000ms, 2201ms total)
T05DC 002:579 JLINK_WriteReg(R15, 0x2000018C)  returns 0x00 (0000ms, 2201ms total)
T05DC 002:579 JLINK_WriteReg(XPSR, 0x01000000)  returns 0x00 (0000ms, 2201ms total)
T05DC 002:579 JLINK_WriteReg(MSP, 0x20000800)  returns 0x00 (0000ms, 2201ms total)
T05DC 002:579 JLINK_WriteReg(PSP, 0x20000800)  returns 0x00 (0000ms, 2201ms total)
T05DC 002:579 JLINK_WriteReg(CFBP, 0x00000000)  returns 0x00 (0000ms, 2201ms total)
T05DC 002:579 JLINK_SetBPEx(Addr = 0x20000000, Type = 0xFFFFFFF2)  returns 0x00000005 (0000ms, 2201ms total)
T05DC 002:579 JLINK_Go() -- CPU_WriteMem(4 bytes @ 0xE0002008) -- CPU_WriteMem(4 bytes @ 0xE000200C) -- CPU_WriteMem(4 bytes @ 0xE0002010) -- CPU_WriteMem(4 bytes @ 0xE0002014) -- CPU_WriteMem(4 bytes @ 0xE0002018) -- CPU_WriteMem(4 bytes @ 0xE000201C) >0x310 JTAG> >0x218 JTAG> >0x218 JTAG> >0x218 JTAG> >0x218 JTAG> >0x218 JTAG> >0x240 JTAG> >0x240 JTAG> (0011ms, 2201ms total)
T05DC 002:590 JLINK_IsHalted() >0x198 JTAG>  returns FALSE (0000ms, 2212ms total)
T05DC 002:641 JLINK_IsHalted() >0x198 JTAG> >0x17A8 JTAG> -- CPU_ReadMem(2 bytes @ 0x20000000)  returns TRUE (0008ms, 2212ms total)
T05DC 002:649 JLINK_ReadReg(R15)  returns 0x20000000 (0000ms, 2212ms total)
T05DC 002:649 JLINK_ClrBPEx(BPHandle = 0x00000005)  returns 0x00 (0000ms, 2212ms total)
T05DC 002:649 JLINK_ReadReg(R0)  returns 0x00000000 (0000ms, 2212ms total)
T05DC 002:650 JLINK_WriteMem(0x20000260, 0x0400 Bytes, ...) -- Data:  00 C0 BC F1 FF 0F 34 DD 54 68 00 20 2E E0 00 F1 ... -- CPU_WriteMem(1024 bytes @ 0x20000260)  returns 0x400 (0007ms, 2212ms total)
T05DC 002:657 JLINK_WriteReg(R0, 0x08000400)  returns 0x00 (0000ms, 2219ms total)
T05DC 002:657 JLINK_WriteReg(R1, 0x00000400)  returns 0x00 (0000ms, 2219ms total)
T05DC 002:657 JLINK_WriteReg(R2, 0x20000260)  returns 0x00 (0000ms, 2219ms total)
T05DC 002:658 JLINK_WriteReg(R3, 0x00000000)  returns 0x00 (0000ms, 2220ms total)
T05DC 002:658 JLINK_WriteReg(R4, 0x00000000)  returns 0x00 (0000ms, 2220ms total)
T05DC 002:658 JLINK_WriteReg(R5, 0x00000000)  returns 0x00 (0000ms, 2220ms total)
T05DC 002:658 JLINK_WriteReg(R6, 0x00000000)  returns 0x00 (0000ms, 2220ms total)
T05DC 002:658 JLINK_WriteReg(R7, 0x00000000)  returns 0x00 (0000ms, 2220ms total)
T05DC 002:658 JLINK_WriteReg(R8, 0x00000000)  returns 0x00 (0000ms, 2220ms total)
T05DC 002:658 JLINK_WriteReg(R9, 0x20000258)  returns 0x00 (0000ms, 2220ms total)
T05DC 002:658 JLINK_WriteReg(R10, 0x00000000)  returns 0x00 (0000ms, 2220ms total)
T05DC 002:658 JLINK_WriteReg(R11, 0x00000000)  returns 0x00 (0000ms, 2220ms total)
T05DC 002:658 JLINK_WriteReg(R12, 0x00000000)  returns 0x00 (0000ms, 2220ms total)
T05DC 002:658 JLINK_WriteReg(R13, 0x20000800)  returns 0x00 (0000ms, 2220ms total)
T05DC 002:658 JLINK_WriteReg(R14, 0x20000001)  returns 0x00 (0000ms, 2220ms total)
T05DC 002:658 JLINK_WriteReg(R15, 0x2000018C)  returns 0x00 (0000ms, 2220ms total)
T05DC 002:658 JLINK_WriteReg(XPSR, 0x01000000)  returns 0x00 (0000ms, 2220ms total)
T05DC 002:658 JLINK_WriteReg(MSP, 0x20000800)  returns 0x00 (0000ms, 2220ms total)
T05DC 002:658 JLINK_WriteReg(PSP, 0x20000800)  returns 0x00 (0000ms, 2220ms total)
T05DC 002:658 JLINK_WriteReg(CFBP, 0x00000000)  returns 0x00 (0000ms, 2220ms total)
T05DC 002:658 JLINK_SetBPEx(Addr = 0x20000000, Type = 0xFFFFFFF2)  returns 0x00000006 (0001ms, 2220ms total)
T05DC 002:659 JLINK_Go() -- CPU_WriteMem(4 bytes @ 0xE0002008) -- CPU_WriteMem(4 bytes @ 0xE000200C) -- CPU_WriteMem(4 bytes @ 0xE0002010) -- CPU_WriteMem(4 bytes @ 0xE0002014) -- CPU_WriteMem(4 bytes @ 0xE0002018) -- CPU_WriteMem(4 bytes @ 0xE000201C) >0x310 JTAG> >0x218 JTAG> >0x218 JTAG> >0x218 JTAG> >0x218 JTAG> >0x218 JTAG> >0x240 JTAG> >0x240 JTAG> (0014ms, 2221ms total)
T05DC 002:673 JLINK_IsHalted() >0x198 JTAG>  returns FALSE (0001ms, 2235ms total)
T05DC 002:725 JLINK_IsHalted() >0x198 JTAG> >0x17A8 JTAG> -- CPU_ReadMem(2 bytes @ 0x20000000)  returns TRUE (0007ms, 2235ms total)
T05DC 002:732 JLINK_ReadReg(R15)  returns 0x20000000 (0000ms, 2235ms total)
T05DC 002:732 JLINK_ClrBPEx(BPHandle = 0x00000006)  returns 0x00 (0001ms, 2235ms total)
T05DC 002:733 JLINK_ReadReg(R0)  returns 0x00000000 (0000ms, 2236ms total)
T05DC 002:735 JLINK_WriteMem(0x20000260, 0x0400 Bytes, ...) -- Data:  0C 01 21 B1 04 29 05 D0 08 29 23 D1 05 E0 5F 4D ... -- CPU_WriteMem(1024 bytes @ 0x20000260)  returns 0x400 (0007ms, 2236ms total)
T05DC 002:742 JLINK_WriteReg(R0, 0x08000800)  returns 0x00 (0000ms, 2243ms total)
T05DC 002:742 JLINK_WriteReg(R1, 0x00000400)  returns 0x00 (0000ms, 2243ms total)
T05DC 002:742 JLINK_WriteReg(R2, 0x20000260)  returns 0x00 (0000ms, 2243ms total)
T05DC 002:743 JLINK_WriteReg(R3, 0x00000000)  returns 0x00 (0000ms, 2244ms total)
T05DC 002:743 JLINK_WriteReg(R4, 0x00000000)  returns 0x00 (0000ms, 2244ms total)
T05DC 002:743 JLINK_WriteReg(R5, 0x00000000)  returns 0x00 (0000ms, 2244ms total)
T05DC 002:743 JLINK_WriteReg(R6, 0x00000000)  returns 0x00 (0000ms, 2244ms total)
T05DC 002:743 JLINK_WriteReg(R7, 0x00000000)  returns 0x00 (0000ms, 2244ms total)
T05DC 002:743 JLINK_WriteReg(R8, 0x00000000)  returns 0x00 (0000ms, 2244ms total)
T05DC 002:743 JLINK_WriteReg(R9, 0x20000258)  returns 0x00 (0000ms, 2244ms total)
T05DC 002:743 JLINK_WriteReg(R10, 0x00000000)  returns 0x00 (0000ms, 2244ms total)
T05DC 002:743 JLINK_WriteReg(R11, 0x00000000)  returns 0x00 (0000ms, 2244ms total)
T05DC 002:743 JLINK_WriteReg(R12, 0x00000000)  returns 0x00 (0000ms, 2244ms total)
T05DC 002:743 JLINK_WriteReg(R13, 0x20000800)  returns 0x00 (0000ms, 2244ms total)
T05DC 002:743 JLINK_WriteReg(R14, 0x20000001)  returns 0x00 (0000ms, 2244ms total)
T05DC 002:743 JLINK_WriteReg(R15, 0x2000018C)  returns 0x00 (0000ms, 2244ms total)
T05DC 002:743 JLINK_WriteReg(XPSR, 0x01000000)  returns 0x00 (0000ms, 2244ms total)
T05DC 002:743 JLINK_WriteReg(MSP, 0x20000800)  returns 0x00 (0000ms, 2244ms total)
T05DC 002:743 JLINK_WriteReg(PSP, 0x20000800)  returns 0x00 (0000ms, 2244ms total)
T05DC 002:743 JLINK_WriteReg(CFBP, 0x00000000)  returns 0x00 (0000ms, 2244ms total)
T05DC 002:743 JLINK_SetBPEx(Addr = 0x20000000, Type = 0xFFFFFFF2)  returns 0x00000007 (0001ms, 2244ms total)
T05DC 002:744 JLINK_Go() -- CPU_WriteMem(4 bytes @ 0xE0002008) -- CPU_WriteMem(4 bytes @ 0xE000200C) -- CPU_WriteMem(4 bytes @ 0xE0002010) -- CPU_WriteMem(4 bytes @ 0xE0002014) -- CPU_WriteMem(4 bytes @ 0xE0002018) -- CPU_WriteMem(4 bytes @ 0xE000201C) >0x310 JTAG> >0x218 JTAG> >0x218 JTAG> >0x218 JTAG> >0x218 JTAG> >0x218 JTAG> >0x240 JTAG> >0x240 JTAG> (0016ms, 2245ms total)
T05DC 002:760 JLINK_IsHalted() >0x198 JTAG>  returns FALSE (0001ms, 2261ms total)
T05DC 002:812 JLINK_IsHalted() >0x198 JTAG> >0x17A8 JTAG> -- CPU_ReadMem(2 bytes @ 0x20000000)  returns TRUE (0008ms, 2261ms total)
T05DC 002:820 JLINK_ReadReg(R15)  returns 0x20000000 (0000ms, 2261ms total)
T05DC 002:820 JLINK_ClrBPEx(BPHandle = 0x00000007)  returns 0x00 (0000ms, 2261ms total)
T05DC 002:820 JLINK_ReadReg(R0)  returns 0x00000000 (0000ms, 2261ms total)
T05DC 002:828 JLINK_WriteMem(0x20000260, 0x0400 Bytes, ...) -- Data:  0A 43 02 82 70 47 21 B1 02 8A 42 F4 80 42 02 82 ... -- CPU_WriteMem(1024 bytes @ 0x20000260)  returns 0x400 (0007ms, 2261ms total)
T05DC 002:835 JLINK_WriteReg(R0, 0x08000C00)  returns 0x00 (0000ms, 2268ms total)
T05DC 002:835 JLINK_WriteReg(R1, 0x00000400)  returns 0x00 (0000ms, 2268ms total)
T05DC 002:835 JLINK_WriteReg(R2, 0x20000260)  returns 0x00 (0000ms, 2268ms total)
T05DC 002:835 JLINK_WriteReg(R3, 0x00000000)  returns 0x00 (0000ms, 2268ms total)
T05DC 002:835 JLINK_WriteReg(R4, 0x00000000)  returns 0x00 (0000ms, 2268ms total)
T05DC 002:835 JLINK_WriteReg(R5, 0x00000000)  returns 0x00 (0000ms, 2268ms total)
T05DC 002:835 JLINK_WriteReg(R6, 0x00000000)  returns 0x00 (0000ms, 2268ms total)
T05DC 002:835 JLINK_WriteReg(R7, 0x00000000)  returns 0x00 (0000ms, 2268ms total)
T05DC 002:835 JLINK_WriteReg(R8, 0x00000000)  returns 0x00 (0000ms, 2268ms total)
T05DC 002:835 JLINK_WriteReg(R9, 0x20000258)  returns 0x00 (0000ms, 2268ms total)
T05DC 002:835 JLINK_WriteReg(R10, 0x00000000)  returns 0x00 (0000ms, 2268ms total)
T05DC 002:835 JLINK_WriteReg(R11, 0x00000000)  returns 0x00 (0000ms, 2268ms total)
T05DC 002:835 JLINK_WriteReg(R12, 0x00000000)  returns 0x00 (0000ms, 2268ms total)
T05DC 002:835 JLINK_WriteReg(R13, 0x20000800)  returns 0x00 (0000ms, 2268ms total)
T05DC 002:835 JLINK_WriteReg(R14, 0x20000001)  returns 0x00 (0000ms, 2268ms total)
T05DC 002:835 JLINK_WriteReg(R15, 0x2000018C)  returns 0x00 (0000ms, 2268ms total)
T05DC 002:835 JLINK_WriteReg(XPSR, 0x01000000)  returns 0x00 (0000ms, 2268ms total)
T05DC 002:836 JLINK_WriteReg(MSP, 0x20000800)  returns 0x00 (0000ms, 2269ms total)
T05DC 002:836 JLINK_WriteReg(PSP, 0x20000800)  returns 0x00 (0000ms, 2269ms total)
T05DC 002:836 JLINK_WriteReg(CFBP, 0x00000000)  returns 0x00 (0000ms, 2269ms total)
T05DC 002:836 JLINK_SetBPEx(Addr = 0x20000000, Type = 0xFFFFFFF2)  returns 0x00000008 (0000ms, 2269ms total)
T05DC 002:836 JLINK_Go() -- CPU_WriteMem(4 bytes @ 0xE0002008) -- CPU_WriteMem(4 bytes @ 0xE000200C) -- CPU_WriteMem(4 bytes @ 0xE0002010) -- CPU_WriteMem(4 bytes @ 0xE0002014) -- CPU_WriteMem(4 bytes @ 0xE0002018) -- CPU_WriteMem(4 bytes @ 0xE000201C) >0x310 JTAG> >0x218 JTAG> >0x218 JTAG> >0x218 JTAG> >0x218 JTAG> >0x218 JTAG> >0x240 JTAG> >0x240 JTAG> (0016ms, 2269ms total)
T05DC 002:852 JLINK_IsHalted() >0x198 JTAG>  returns FALSE (0001ms, 2285ms total)
T05DC 002:904 JLINK_IsHalted() >0x198 JTAG> >0x17A8 JTAG> -- CPU_ReadMem(2 bytes @ 0x20000000)  returns TRUE (0007ms, 2285ms total)
T05DC 002:911 JLINK_ReadReg(R15)  returns 0x20000000 (0000ms, 2285ms total)
T05DC 002:911 JLINK_ClrBPEx(BPHandle = 0x00000008)  returns 0x00 (0000ms, 2285ms total)
T05DC 002:911 JLINK_ReadReg(R0)  returns 0x00000000 (0001ms, 2285ms total)
T05DC 002:914 JLINK_WriteReg(R0, 0x00000002)  returns 0x00 (0001ms, 2286ms total)
T05DC 002:915 JLINK_WriteReg(R1, 0x00000400)  returns 0x00 (0000ms, 2287ms total)
T05DC 002:915 JLINK_WriteReg(R2, 0x20000260)  returns 0x00 (0000ms, 2287ms total)
T05DC 002:915 JLINK_WriteReg(R3, 0x00000000)  returns 0x00 (0000ms, 2287ms total)
T05DC 002:915 JLINK_WriteReg(R4, 0x00000000)  returns 0x00 (0000ms, 2287ms total)
T05DC 002:915 JLINK_WriteReg(R5, 0x00000000)  returns 0x00 (0000ms, 2287ms total)
T05DC 002:915 JLINK_WriteReg(R6, 0x00000000)  returns 0x00 (0000ms, 2287ms total)
T05DC 002:915 JLINK_WriteReg(R7, 0x00000000)  returns 0x00 (0000ms, 2287ms total)
T05DC 002:915 JLINK_WriteReg(R8, 0x00000000)  returns 0x00 (0000ms, 2287ms total)
T05DC 002:915 JLINK_WriteReg(R9, 0x20000258)  returns 0x00 (0000ms, 2287ms total)
T05DC 002:915 JLINK_WriteReg(R10, 0x00000000)  returns 0x00 (0000ms, 2287ms total)
T05DC 002:915 JLINK_WriteReg(R11, 0x00000000)  returns 0x00 (0000ms, 2287ms total)
T05DC 002:915 JLINK_WriteReg(R12, 0x00000000)  returns 0x00 (0000ms, 2287ms total)
T05DC 002:915 JLINK_WriteReg(R13, 0x20000800)  returns 0x00 (0000ms, 2287ms total)
T05DC 002:915 JLINK_WriteReg(R14, 0x20000001)  returns 0x00 (0001ms, 2287ms total)
T05DC 002:916 JLINK_WriteReg(R15, 0x2000007C)  returns 0x00 (0000ms, 2288ms total)
T05DC 002:916 JLINK_WriteReg(XPSR, 0x01000000)  returns 0x00 (0000ms, 2288ms total)
T05DC 002:916 JLINK_WriteReg(MSP, 0x20000800)  returns 0x00 (0000ms, 2288ms total)
T05DC 002:916 JLINK_WriteReg(PSP, 0x20000800)  returns 0x00 (0000ms, 2288ms total)
T05DC 002:916 JLINK_WriteReg(CFBP, 0x00000000)  returns 0x00 (0000ms, 2288ms total)
T05DC 002:916 JLINK_SetBPEx(Addr = 0x20000000, Type = 0xFFFFFFF2)  returns 0x00000009 (0000ms, 2288ms total)
T05DC 002:916 JLINK_Go() -- CPU_WriteMem(4 bytes @ 0xE0002008) -- CPU_WriteMem(4 bytes @ 0xE000200C) -- CPU_WriteMem(4 bytes @ 0xE0002010) -- CPU_WriteMem(4 bytes @ 0xE0002014) -- CPU_WriteMem(4 bytes @ 0xE0002018) -- CPU_WriteMem(4 bytes @ 0xE000201C) >0x310 JTAG> >0x218 JTAG> >0x218 JTAG> >0x218 JTAG> >0x218 JTAG> >0x218 JTAG> >0x240 JTAG> >0x240 JTAG> (0015ms, 2288ms total)
T05DC 002:931 JLINK_IsHalted() >0x198 JTAG> >0x17A8 JTAG> -- CPU_ReadMem(2 bytes @ 0x20000000)  returns TRUE (0008ms, 2303ms total)
T05DC 002:939 JLINK_ReadReg(R15)  returns 0x20000000 (0000ms, 2303ms total)
T05DC 002:939 JLINK_ClrBPEx(BPHandle = 0x00000009)  returns 0x00 (0000ms, 2303ms total)
T05DC 002:939 JLINK_ReadReg(R0)  returns 0x00000000 (0000ms, 2303ms total)
T05DC 003:065 JLINK_WriteMem(0x20000000, 0x0260 Bytes, ...) -- Data:  00 BE 0A E0 0D 78 2D 06 68 40 08 24 40 00 00 D3 ... -- CPU_WriteMem(608 bytes @ 0x20000000)  returns 0x260 (0005ms, 2303ms total)
T05DC 003:070 JLINK_WriteReg(R0, 0x08000000)  returns 0x00 (0000ms, 2308ms total)
T05DC 003:070 JLINK_WriteReg(R1, 0x007A1200)  returns 0x00 (0000ms, 2308ms total)
T05DC 003:070 JLINK_WriteReg(R2, 0x00000003)  returns 0x00 (0000ms, 2308ms total)
T05DC 003:070 JLINK_WriteReg(R3, 0x00000000)  returns 0x00 (0000ms, 2308ms total)
T05DC 003:070 JLINK_WriteReg(R4, 0x00000000)  returns 0x00 (0000ms, 2308ms total)
T05DC 003:070 JLINK_WriteReg(R5, 0x00000000)  returns 0x00 (0000ms, 2308ms total)
T05DC 003:070 JLINK_WriteReg(R6, 0x00000000)  returns 0x00 (0000ms, 2308ms total)
T05DC 003:070 JLINK_WriteReg(R7, 0x00000000)  returns 0x00 (0000ms, 2308ms total)
T05DC 003:070 JLINK_WriteReg(R8, 0x00000000)  returns 0x00 (0000ms, 2308ms total)
T05DC 003:070 JLINK_WriteReg(R9, 0x20000258)  returns 0x00 (0000ms, 2308ms total)
T05DC 003:070 JLINK_WriteReg(R10, 0x00000000)  returns 0x00 (0000ms, 2308ms total)
T05DC 003:070 JLINK_WriteReg(R11, 0x00000000)  returns 0x00 (0000ms, 2308ms total)
T05DC 003:070 JLINK_WriteReg(R12, 0x00000000)  returns 0x00 (0000ms, 2308ms total)
T05DC 003:071 JLINK_WriteReg(R13, 0x20000800)  returns 0x00 (0000ms, 2309ms total)
T05DC 003:071 JLINK_WriteReg(R14, 0x20000001)  returns 0x00 (0000ms, 2309ms total)
T05DC 003:071 JLINK_WriteReg(R15, 0x20000038)  returns 0x00 (0000ms, 2309ms total)
T05DC 003:071 JLINK_WriteReg(XPSR, 0x01000000)  returns 0x00 (0000ms, 2309ms total)
T05DC 003:071 JLINK_WriteReg(MSP, 0x20000800)  returns 0x00 (0000ms, 2309ms total)
T05DC 003:071 JLINK_WriteReg(PSP, 0x20000800)  returns 0x00 (0000ms, 2309ms total)
T05DC 003:071 JLINK_WriteReg(CFBP, 0x00000000)  returns 0x00 (0000ms, 2309ms total)
T05DC 003:071 JLINK_SetBPEx(Addr = 0x20000000, Type = 0xFFFFFFF2) -- CPU_ReadMem(2 bytes @ 0x20000000)  returns 0x0000000A (0001ms, 2309ms total)
T05DC 003:072 JLINK_Go() -- CPU_WriteMem(2 bytes @ 0x20000000) -- CPU_WriteMem(4 bytes @ 0xE0002008) -- CPU_WriteMem(4 bytes @ 0xE000200C) -- CPU_WriteMem(4 bytes @ 0xE0002010) -- CPU_WriteMem(4 bytes @ 0xE0002014) -- CPU_WriteMem(4 bytes @ 0xE0002018) -- CPU_WriteMem(4 bytes @ 0xE000201C) >0x310 JTAG> >0x218 JTAG> >0x218 JTAG> >0x218 JTAG> >0x218 JTAG> >0x240 JTAG> >0x240 JTAG> (0015ms, 2310ms total)
T05DC 003:087 JLINK_IsHalted() >0x198 JTAG> >0x17A8 JTAG> -- CPU_ReadMem(2 bytes @ 0x20000000)  returns TRUE (0008ms, 2325ms total)
T05DC 003:095 JLINK_ReadReg(R15)  returns 0x20000000 (0000ms, 2325ms total)
T05DC 003:095 JLINK_ClrBPEx(BPHandle = 0x0000000A)  returns 0x00 (0000ms, 2325ms total)
T05DC 003:095 JLINK_ReadReg(R0)  returns 0x00000000 (0000ms, 2325ms total)
T05DC 003:095 JLINK_WriteReg(R0, 0xFFFFFFFF)  returns 0x00 (0000ms, 2325ms total)
T05DC 003:095 JLINK_WriteReg(R1, 0x08000000)  returns 0x00 (0000ms, 2325ms total)
T05DC 003:095 JLINK_WriteReg(R2, 0x00001000)  returns 0x00 (0000ms, 2325ms total)
T05DC 003:095 JLINK_WriteReg(R3, 0x04C11DB7)  returns 0x00 (0000ms, 2325ms total)
T05DC 003:095 JLINK_WriteReg(R4, 0x00000000)  returns 0x00 (0000ms, 2325ms total)
T05DC 003:095 JLINK_WriteReg(R5, 0x00000000)  returns 0x00 (0000ms, 2325ms total)
T05DC 003:095 JLINK_WriteReg(R6, 0x00000000)  returns 0x00 (0000ms, 2325ms total)
T05DC 003:095 JLINK_WriteReg(R7, 0x00000000)  returns 0x00 (0000ms, 2325ms total)
T05DC 003:095 JLINK_WriteReg(R8, 0x00000000)  returns 0x00 (0000ms, 2325ms total)
T05DC 003:095 JLINK_WriteReg(R9, 0x20000258)  returns 0x00 (0000ms, 2325ms total)
T05DC 003:095 JLINK_WriteReg(R10, 0x00000000)  returns 0x00 (0000ms, 2325ms total)
T05DC 003:095 JLINK_WriteReg(R11, 0x00000000)  returns 0x00 (0000ms, 2325ms total)
T05DC 003:095 JLINK_WriteReg(R12, 0x00000000)  returns 0x00 (0001ms, 2325ms total)
T05DC 003:096 JLINK_WriteReg(R13, 0x20000800)  returns 0x00 (0000ms, 2326ms total)
T05DC 003:096 JLINK_WriteReg(R14, 0x20000001)  returns 0x00 (0000ms, 2326ms total)
T05DC 003:096 JLINK_WriteReg(R15, 0x20000002)  returns 0x00 (0000ms, 2326ms total)
T05DC 003:096 JLINK_WriteReg(XPSR, 0x01000000)  returns 0x00 (0000ms, 2326ms total)
T05DC 003:096 JLINK_WriteReg(MSP, 0x20000800)  returns 0x00 (0000ms, 2326ms total)
T05DC 003:096 JLINK_WriteReg(PSP, 0x20000800)  returns 0x00 (0000ms, 2326ms total)
T05DC 003:096 JLINK_WriteReg(CFBP, 0x00000000)  returns 0x00 (0000ms, 2326ms total)
T05DC 003:096 JLINK_SetBPEx(Addr = 0x20000000, Type = 0xFFFFFFF2)  returns 0x0000000B (0000ms, 2326ms total)
T05DC 003:096 JLINK_Go() -- CPU_WriteMem(4 bytes @ 0xE0002008) -- CPU_WriteMem(4 bytes @ 0xE000200C) -- CPU_WriteMem(4 bytes @ 0xE0002010) -- CPU_WriteMem(4 bytes @ 0xE0002014) -- CPU_WriteMem(4 bytes @ 0xE0002018) -- CPU_WriteMem(4 bytes @ 0xE000201C) >0x310 JTAG> >0x218 JTAG> >0x218 JTAG> >0x218 JTAG> >0x218 JTAG> >0x218 JTAG> >0x240 JTAG> >0x240 JTAG> (0014ms, 2326ms total)
T05DC 003:110 JLINK_IsHalted() >0x198 JTAG>  returns FALSE (0001ms, 2340ms total)
T05DC 003:162 JLINK_IsHalted() >0x198 JTAG> >0x17A8 JTAG> -- CPU_ReadMem(2 bytes @ 0x20000000)  returns TRUE (0007ms, 2340ms total)
T05DC 003:169 JLINK_ReadReg(R15)  returns 0x20000000 (0001ms, 2340ms total)
T05DC 003:170 JLINK_ClrBPEx(BPHandle = 0x0000000B)  returns 0x00 (0000ms, 2341ms total)
T05DC 003:170 JLINK_ReadReg(R0)  returns 0x53DBE830 (0000ms, 2341ms total)
T05DC 003:177 JLINK_WriteReg(R0, 0x00000003)  returns 0x00 (0000ms, 2341ms total)
T05DC 003:177 JLINK_WriteReg(R1, 0x08000000)  returns 0x00 (0000ms, 2341ms total)
T05DC 003:177 JLINK_WriteReg(R2, 0x00001000)  returns 0x00 (0000ms, 2341ms total)
T05DC 003:177 JLINK_WriteReg(R3, 0x04C11DB7)  returns 0x00 (0000ms, 2341ms total)
T05DC 003:177 JLINK_WriteReg(R4, 0x00000000)  returns 0x00 (0001ms, 2341ms total)
T05DC 003:178 JLINK_WriteReg(R5, 0x00000000)  returns 0x00 (0000ms, 2342ms total)
T05DC 003:178 JLINK_WriteReg(R6, 0x00000000)  returns 0x00 (0000ms, 2342ms total)
T05DC 003:178 JLINK_WriteReg(R7, 0x00000000)  returns 0x00 (0000ms, 2342ms total)
T05DC 003:178 JLINK_WriteReg(R8, 0x00000000)  returns 0x00 (0000ms, 2342ms total)
T05DC 003:178 JLINK_WriteReg(R9, 0x20000258)  returns 0x00 (0000ms, 2342ms total)
T05DC 003:178 JLINK_WriteReg(R10, 0x00000000)  returns 0x00 (0000ms, 2342ms total)
T05DC 003:178 JLINK_WriteReg(R11, 0x00000000)  returns 0x00 (0000ms, 2342ms total)
T05DC 003:178 JLINK_WriteReg(R12, 0x00000000)  returns 0x00 (0000ms, 2342ms total)
T05DC 003:178 JLINK_WriteReg(R13, 0x20000800)  returns 0x00 (0000ms, 2342ms total)
T05DC 003:178 JLINK_WriteReg(R14, 0x20000001)  returns 0x00 (0000ms, 2342ms total)
T05DC 003:178 JLINK_WriteReg(R15, 0x2000007C)  returns 0x00 (0000ms, 2342ms total)
T05DC 003:178 JLINK_WriteReg(XPSR, 0x01000000)  returns 0x00 (0000ms, 2342ms total)
T05DC 003:178 JLINK_WriteReg(MSP, 0x20000800)  returns 0x00 (0000ms, 2342ms total)
T05DC 003:178 JLINK_WriteReg(PSP, 0x20000800)  returns 0x00 (0000ms, 2342ms total)
T05DC 003:178 JLINK_WriteReg(CFBP, 0x00000000)  returns 0x00 (0000ms, 2342ms total)
T05DC 003:178 JLINK_SetBPEx(Addr = 0x20000000, Type = 0xFFFFFFF2)  returns 0x0000000C (0000ms, 2342ms total)
T05DC 003:178 JLINK_Go() -- CPU_WriteMem(4 bytes @ 0xE0002008) -- CPU_WriteMem(4 bytes @ 0xE000200C) -- CPU_WriteMem(4 bytes @ 0xE0002010) -- CPU_WriteMem(4 bytes @ 0xE0002014) -- CPU_WriteMem(4 bytes @ 0xE0002018) -- CPU_WriteMem(4 bytes @ 0xE000201C) >0x310 JTAG> >0x218 JTAG> >0x218 JTAG> >0x218 JTAG> >0x218 JTAG> >0x218 JTAG> >0x240 JTAG> >0x240 JTAG> (0015ms, 2342ms total)
T05DC 003:193 JLINK_IsHalted() >0x198 JTAG> >0x17A8 JTAG> -- CPU_ReadMem(2 bytes @ 0x20000000)  returns TRUE (0008ms, 2357ms total)
T05DC 003:201 JLINK_ReadReg(R15)  returns 0x20000000 (0000ms, 2357ms total)
T05DC 003:201 JLINK_ClrBPEx(BPHandle = 0x0000000C)  returns 0x00 (0000ms, 2357ms total)
T05DC 003:201 JLINK_ReadReg(R0)  returns 0x00000000 (0000ms, 2357ms total)
T05DC 003:292 JLINK_WriteU32(0xE000EDFC, 0x00000000) -- CPU_WriteMem(4 bytes @ 0xE000EDFC)  returns 0x00 (0001ms, 2357ms total)
T05DC 003:293 JLINK_SetResetType(JLINKARM_RESET_TYPE_NORMAL)  returns JLINKARM_RESET_TYPE_NORMAL (0000ms, 2358ms total)
T05DC 003:293 JLINK_Reset() >0x2F8 JTAG>TotalIRLen = 9, IRPrint = 0x0011 >0x30 JTAG> >0x210 JTAG> >0x118 JTAG> >0xD8 JTAG> >0x198 JTAG> >0x38 JTAG> >0x118 JTAG> >0xD8 JTAG> >0x2F0 JTAG> >0x2F0 JTAG> >0x198 JTAG> >0x198 JTAG>Found Cortex-M3 r1p1, Little endian. >0xD8 JTAG> >0x240 JTAG> >0x198 JTAG> >0x198 JTAG>TPIU fitted. >0x198 JTAG>ETM fitted. >0x198 JTAG>  FPUnit: 6 code (BP) slots and 2 literal slots >0x198 JTAG> >0x250 JTAG> >0x240 JTAG> >0x280 JTAG> >0x198 JTAG> >0x198 JTAG> >0x240 JTAG>
 >0x240 JTAG> >0x198 JTAG> >0x198 JTAG> >0x240 JTAG> >0x198 JTAG> >0x17A8 JTAG> >0x198 JTAG> -- CPU_WriteMem(4 bytes @ 0xE000EDFC) -- CPU_WriteMem(4 bytes @ 0xE0001028) -- CPU_WriteMem(4 bytes @ 0xE0001038) -- CPU_WriteMem(4 bytes @ 0xE0001048) -- CPU_WriteMem(4 bytes @ 0xE0001058) (0251ms, 2358ms total)
T05DC 003:601 JLINK_Close() -- CPU_ReadMem(2 bytes @ 0x20000000) -- CPU_WriteMem(2 bytes @ 0x20000000) -- CPU_WriteMem(4 bytes @ 0xE0002008) -- CPU_WriteMem(4 bytes @ 0xE000200C) -- CPU_WriteMem(4 bytes @ 0xE0002010) -- CPU_WriteMem(4 bytes @ 0xE0002014) -- CPU_WriteMem(4 bytes @ 0xE0002018) -- CPU_WriteMem(4 bytes @ 0xE000201C) >0x240 JTAG> >0x240 JTAG> >0x08 JTAG> (0323ms, 2609ms total)
